T3DDC 000:119.629   SEGGER J-Link V7.22b Log File
T3DDC 000:120.416   DLL Compiled: Jun 17 2021 17:22:49
T3DDC 000:120.435   Logging started @ 2022-05-04 07:58
T3DDC 000:120.451 - 120.459ms
T3DDC 000:120.960 JLINK_SetWarnOutHandler(...)
T3DDC 000:121.712 - 0.763ms
T3DDC 000:121.745 JLINK_OpenEx(...)
T3DDC 000:124.446   Firmware: J-Link ARM-OB STM32 compiled Aug 22 2012 19:52:04
T3DDC 000:125.191   Firmware: J-Link ARM-OB STM32 compiled Aug 22 2012 19:52:04
T3DDC 000:128.361   Hardware: V7.00
T3DDC 000:128.399   S/N: 20090928
T3DDC 000:128.423   OEM: SEGGER
T3DDC 000:128.447   Feature(s): RDI,FlashDL,FlashBP,JFlash,GDBFull
T3DDC 000:130.040   TELNET listener socket opened on port 19021
T3DDC 000:130.290   WEBSRV Starting webserver
T3DDC 000:130.704   WEBSRV Webserver running on local port 19080
T3DDC 000:130.749 - 9.015ms returns "O.K."
T3DDC 000:130.838 JLINK_GetEmuCaps()
T3DDC 000:130.864 - 0.038ms returns 0x88EA5833
T3DDC 000:130.913 JLINK_TIF_GetAvailable(...)
T3DDC 000:131.174 - 0.283ms
T3DDC 000:131.223 JLINK_SetErrorOutHandler(...)
T3DDC 000:131.240 - 0.025ms
T3DDC 000:132.268 JLINK_ExecCommand("ProjectFile = "F:\freeRTOS_test\Project\RVMDK£¨uv5£©\JLinkSettings.ini"", ...). 
T3DDC 000:190.529 - 58.296ms returns 0x00
T3DDC 000:194.310 JLINK_ExecCommand("Device = STM32F103ZE", ...). 
T3DDC 000:203.397   Device "STM32F103ZE" selected.
T3DDC 000:203.954 - 9.628ms returns 0x00
T3DDC 000:203.995 JLINK_GetHardwareVersion()
T3DDC 000:204.007 - 0.017ms returns 70000
T3DDC 000:204.022 JLINK_GetDLLVersion()
T3DDC 000:204.033 - 0.016ms returns 72202
T3DDC 000:204.047 JLINK_GetOEMString(...)
T3DDC 000:204.069 JLINK_GetFirmwareString(...)
T3DDC 000:204.088 - 0.024ms
T3DDC 000:213.973 JLINK_GetDLLVersion()
T3DDC 000:214.003 - 0.037ms returns 72202
T3DDC 000:214.020 JLINK_GetCompileDateTime()
T3DDC 000:214.031 - 0.016ms
T3DDC 000:216.846 JLINK_GetFirmwareString(...)
T3DDC 000:216.868 - 0.027ms
T3DDC 000:219.667 JLINK_GetHardwareVersion()
T3DDC 000:219.687 - 0.026ms returns 70000
T3DDC 000:223.823 JLINK_GetSN()
T3DDC 000:223.869 - 0.054ms returns 20090928
T3DDC 000:227.707 JLINK_GetOEMString(...)
T3DDC 000:234.392 JLINK_TIF_Select(JLINKARM_TIF_SWD)
T3DDC 000:236.155 - 1.789ms returns 0x00
T3DDC 000:236.201 JLINK_HasError()
T3DDC 000:236.944 JLINK_SetSpeed(5000)
T3DDC 000:237.226 - 0.297ms
T3DDC 000:237.259 JLINK_GetId()
T3DDC 000:242.116   InitTarget() start
T3DDC 000:242.162    J-Link Script File: Executing InitTarget()
T3DDC 000:260.163   InitTarget() end
T3DDC 000:263.778   Found SW-DP with ID 0x1BA01477
T3DDC 000:271.695   Old FW that does not support reading DPIDR via DAP jobs
T3DDC 000:279.953   DPv0 detected
T3DDC 000:282.369   Scanning AP map to find all available APs
T3DDC 000:289.159   AP[1]: Stopped AP scan as end of AP map has been reached
T3DDC 000:291.382   AP[0]: AHB-AP (IDR: 0x14770011)
T3DDC 000:293.398   Iterating through AP map to find AHB-AP to use
T3DDC 000:301.623   AP[0]: Core found
T3DDC 000:303.548   AP[0]: AHB-AP ROM base: 0xE00FF000
T3DDC 000:309.949   CPUID register: 0x411FC231. Implementer code: 0x41 (ARM)
T3DDC 000:312.072   Found Cortex-M3 r1p1, Little endian.
T3DDC 000:413.950   -- Max. mem block: 0x00002C18
T3DDC 000:414.436   CPU_ReadMem(4 bytes @ 0xE000EDF0)
T3DDC 000:415.142   CPU_WriteMem(4 bytes @ 0xE000EDF0)
T3DDC 000:415.839   CPU_ReadMem(4 bytes @ 0xE0002000)
T3DDC 000:430.155   FPUnit: 6 code (BP) slots and 2 literal slots
T3DDC 000:430.190   CPU_ReadMem(4 bytes @ 0xE000EDFC)
T3DDC 000:430.705   CPU_WriteMem(4 bytes @ 0xE000EDFC)
T3DDC 000:431.243   CPU_ReadMem(4 bytes @ 0xE0001000)
T3DDC 000:431.677   CPU_WriteMem(4 bytes @ 0xE0001000)
T3DDC 000:432.172   CPU_ReadMem(4 bytes @ 0xE000ED88)
T3DDC 000:432.645   CPU_WriteMem(4 bytes @ 0xE000ED88)
T3DDC 000:433.112   CPU_ReadMem(4 bytes @ 0xE000ED88)
T3DDC 000:433.604   CPU_WriteMem(4 bytes @ 0xE000ED88)
T3DDC 000:437.473   CoreSight components:
T3DDC 000:440.898   ROMTbl[0] @ E00FF000
T3DDC 000:440.929   CPU_ReadMem(64 bytes @ 0xE00FF000)
T3DDC 000:442.091   CPU_ReadMem(32 bytes @ 0xE000EFE0)
T3DDC 000:446.099   ROMTbl[0][0]: E000E000, CID: B105E00D, PID: 001BB000 SCS
T3DDC 000:446.132   CPU_ReadMem(32 bytes @ 0xE0001FE0)
T3DDC 000:449.819   ROMTbl[0][1]: E0001000, CID: B105E00D, PID: 001BB002 DWT
T3DDC 000:449.847   CPU_ReadMem(32 bytes @ 0xE0002FE0)
T3DDC 000:453.239   ROMTbl[0][2]: E0002000, CID: B105E00D, PID: 000BB003 FPB
T3DDC 000:453.266   CPU_ReadMem(32 bytes @ 0xE0000FE0)
T3DDC 000:456.383   ROMTbl[0][3]: E0000000, CID: B105E00D, PID: 001BB001 ITM
T3DDC 000:456.416   CPU_ReadMem(32 bytes @ 0xE0040FE0)
T3DDC 000:460.019   ROMTbl[0][4]: E0040000, CID: B105900D, PID: 001BB923 TPIU-Lite
T3DDC 000:460.056   CPU_ReadMem(32 bytes @ 0xE0041FE0)
T3DDC 000:463.533   ROMTbl[0][5]: E0041000, CID: B105900D, PID: 101BB924 ETM-M3
T3DDC 000:466.394 - 229.154ms returns 0x1BA01477
T3DDC 000:466.430 JLINK_GetDLLVersion()
T3DDC 000:466.438 - 0.012ms returns 72202
T3DDC 000:466.449 JLINK_CORE_GetFound()
T3DDC 000:466.456 - 0.011ms returns 0x30000FF
T3DDC 000:466.467 JLINK_GetDebugInfo(0x100 = JLINKARM_ROM_TABLE_ADDR_INDEX)
T3DDC 000:466.477   Value=0xE00FF000
T3DDC 000:466.488 - 0.024ms returns 0
T3DDC 000:468.766 JLINK_GetDebugInfo(0x100 = JLINKARM_ROM_TABLE_ADDR_INDEX)
T3DDC 000:468.786   Value=0xE00FF000
T3DDC 000:468.797 - 0.035ms returns 0
T3DDC 000:468.807 JLINK_GetDebugInfo(0x101 = JLINKARM_DEBUG_INFO_ETM_ADDR_INDEX)
T3DDC 000:468.815   Value=0xE0041000
T3DDC 000:468.826 - 0.022ms returns 0
T3DDC 000:468.853 JLINK_ReadMemEx(0xE0041FD0, 0x20 Bytes, Flags = 0x02000004)
T3DDC 000:468.896   CPU_ReadMem(32 bytes @ 0xE0041FD0)
T3DDC 000:470.013   Data:  04 00 00 00 00 00 00 00 00 00 00 00 00 00 00 00 ...
T3DDC 000:470.044 - 1.194ms returns 32 (0x20)
T3DDC 000:470.060 JLINK_GetDebugInfo(0x102 = JLINKARM_DEBUG_INFO_MTB_ADDR_INDEX)
T3DDC 000:470.069   Value=0x00000000
T3DDC 000:470.080 - 0.023ms returns 0
T3DDC 000:470.089 JLINK_GetDebugInfo(0x103 = JLINKARM_DEBUG_INFO_TPIU_ADDR_INDEX)
T3DDC 000:470.097   Value=0xE0040000
T3DDC 000:470.108 - 0.021ms returns 0
T3DDC 000:470.117 JLINK_GetDebugInfo(0x104 = JLINKARM_DEBUG_INFO_ITM_ADDR_INDEX)
T3DDC 000:470.124   Value=0xE0000000
T3DDC 000:470.135 - 0.021ms returns 0
T3DDC 000:470.144 JLINK_GetDebugInfo(0x105 = JLINKARM_DEBUG_INFO_DWT_ADDR_INDEX)
T3DDC 000:470.151   Value=0xE0001000
T3DDC 000:470.162 - 0.021ms returns 0
T3DDC 000:470.171 JLINK_GetDebugInfo(0x106 = JLINKARM_DEBUG_INFO_FPB_ADDR_INDEX)
T3DDC 000:470.179   Value=0xE0002000
T3DDC 000:470.189 - 0.021ms returns 0
T3DDC 000:470.198 JLINK_GetDebugInfo(0x107 = JLINKARM_DEBUG_INFO_NVIC_ADDR_INDEX)
T3DDC 000:470.206   Value=0xE000E000
T3DDC 000:470.216 - 0.021ms returns 0
T3DDC 000:470.225 JLINK_GetDebugInfo(0x10C = JLINKARM_DEBUG_INFO_DBG_ADDR_INDEX)
T3DDC 000:470.233   Value=0xE000EDF0
T3DDC 000:470.243 - 0.021ms returns 0
T3DDC 000:470.252 JLINK_GetDebugInfo(0x01 = Unknown)
T3DDC 000:470.260   Value=0x00000000
T3DDC 000:470.271 - 0.021ms returns 0
T3DDC 000:470.280 JLINK_ReadMemU32(0xE000ED00, 0x1 Items)
T3DDC 000:470.299   CPU_ReadMem(4 bytes @ 0xE000ED00)
T3DDC 000:470.929   Data:  31 C2 1F 41
T3DDC 000:470.952   Debug reg: CPUID
T3DDC 000:470.962 - 0.686ms returns 1 (0x1)
T3DDC 000:470.976 JLINK_GetDebugInfo(0x10F = JLINKARM_DEBUG_INFO_HAS_CORTEX_M_SECURITY_EXT_INDEX)
T3DDC 000:470.985   Value=0x00000000
T3DDC 000:470.996 - 0.023ms returns 0
T3DDC 000:471.006 JLINK_HasError()
T3DDC 000:471.017 JLINK_SetResetType(JLINKARM_CM3_RESET_TYPE_NORMAL)
T3DDC 000:471.025 - 0.012ms returns JLINKARM_CM3_RESET_TYPE_NORMAL
T3DDC 000:471.035 JLINK_Reset()
T3DDC 000:471.061   CPU is running
T3DDC 000:471.075   CPU_WriteMem(4 bytes @ 0xE000EDF0)
T3DDC 000:471.934   CPU is running
T3DDC 000:471.982   CPU_WriteMem(4 bytes @ 0xE000EDFC)
T3DDC 000:475.865   Reset: Halt core after reset via DEMCR.VC_CORERESET.
T3DDC 000:478.809   Reset: Reset device via AIRCR.SYSRESETREQ.
T3DDC 000:478.834   CPU is running
T3DDC 000:478.850   CPU_WriteMem(4 bytes @ 0xE000ED0C)
T3DDC 000:531.912   CPU_ReadMem(4 bytes @ 0xE000EDF0)
T3DDC 000:532.782   CPU_ReadMem(4 bytes @ 0xE000EDF0)
T3DDC 000:533.651   CPU is running
T3DDC 000:533.721   CPU_WriteMem(4 bytes @ 0xE000EDF0)
T3DDC 000:534.676   CPU is running
T3DDC 000:534.784   CPU_WriteMem(4 bytes @ 0xE000EDFC)
T3DDC 000:542.128   CPU_ReadMem(4 bytes @ 0xE000EDF0)
T3DDC 000:549.574   CPU_WriteMem(4 bytes @ 0xE0002000)
T3DDC 000:550.668   CPU_ReadMem(4 bytes @ 0xE000EDFC)
T3DDC 000:551.537   CPU_ReadMem(4 bytes @ 0xE0001000)
T3DDC 000:552.567 - 81.583ms
T3DDC 000:552.668 JLINK_Halt()
T3DDC 000:552.695 - 0.040ms returns 0x00
T3DDC 000:552.941 JLINK_ReadMemU32(0xE000EDF0, 0x1 Items)
T3DDC 000:553.020   CPU_ReadMem(4 bytes @ 0xE000EDF0)
T3DDC 000:553.896   Data:  03 00 03 00
T3DDC 000:553.974   Debug reg: DHCSR
T3DDC 000:554.011 - 1.083ms returns 1 (0x1)
T3DDC 000:554.059 JLINK_WriteU32_64(0xE000EDF0, 0xA05F0003)
T3DDC 000:554.113   Debug reg: DHCSR
T3DDC 000:555.020   CPU_WriteMem(4 bytes @ 0xE000EDF0)
T3DDC 000:555.859 - 1.839ms returns 0 (0x00000000)
T3DDC 000:555.946 JLINK_WriteU32_64(0xE000EDFC, 0x01000000)
T3DDC 000:555.976   Debug reg: DEMCR
T3DDC 000:556.042   CPU_WriteMem(4 bytes @ 0xE000EDFC)
T3DDC 000:556.876 - 0.974ms returns 0 (0x00000000)
T3DDC 000:583.819 JLINK_GetHWStatus(...)
T3DDC 000:584.288 - 0.504ms returns 0
T3DDC 000:597.865 JLINK_GetNumBPUnits(Type = 0xFFFFFF00)
T3DDC 000:597.912 - 0.056ms returns 0x06
T3DDC 000:597.936 JLINK_GetNumBPUnits(Type = 0xF0)
T3DDC 000:597.954 - 0.026ms returns 0x2000
T3DDC 000:597.976 JLINK_GetNumWPUnits()
T3DDC 000:597.993 - 0.025ms returns 4
T3DDC 000:619.264 JLINK_GetSpeed()
T3DDC 000:619.312 - 0.057ms returns 4000
T3DDC 000:630.391 JLINK_ReadMemU32(0xE000E004, 0x1 Items)
T3DDC 000:630.494   CPU_ReadMem(4 bytes @ 0xE000E004)
T3DDC 000:631.234   Data:  01 00 00 00
T3DDC 000:631.278 - 0.895ms returns 1 (0x1)
T3DDC 000:631.312 JLINK_ReadMemU32(0xE000E004, 0x1 Items)
T3DDC 000:631.341   CPU_ReadMem(4 bytes @ 0xE000E004)
T3DDC 000:632.296   Data:  01 00 00 00
T3DDC 000:632.339 - 1.034ms returns 1 (0x1)
T3DDC 000:632.371 JLINK_WriteMemEx(0xE0001000, 0x0000001C Bytes, Flags = 0x02000004)
T3DDC 000:632.388   Data:  01 00 00 00 00 00 00 00 00 00 00 00 00 00 00 00 ...
T3DDC 000:632.426   CPU_WriteMem(28 bytes @ 0xE0001000)
T3DDC 000:633.687 - 1.350ms returns 0x1C
T3DDC 000:633.784 JLINK_Halt()
T3DDC 000:633.802 - 0.026ms returns 0x00
T3DDC 000:633.952 JLINK_IsHalted()
T3DDC 000:633.979 - 0.034ms returns TRUE
T3DDC 000:647.934 JLINK_WriteMem(0x20000000, 0x164 Bytes, ...)
T3DDC 000:647.958   Data:  00 BE 0A E0 0D 78 2D 06 68 40 08 24 40 00 00 D3 ...
T3DDC 000:648.331   CPU_WriteMem(356 bytes @ 0x20000000)
T3DDC 000:653.301 - 5.394ms returns 0x164
T3DDC 000:653.477 JLINK_HasError()
T3DDC 000:653.510 JLINK_WriteReg(R0, 0x08000000)
T3DDC 000:653.530 - 0.027ms returns 0
T3DDC 000:653.547 JLINK_WriteReg(R1, 0x00B71B00)
T3DDC 000:653.561 - 0.019ms returns 0
T3DDC 000:653.577 JLINK_WriteReg(R2, 0x00000001)
T3DDC 000:653.595 - 0.024ms returns 0
T3DDC 000:653.611 JLINK_WriteReg(R3, 0x00000000)
T3DDC 000:653.624 - 0.019ms returns 0
T3DDC 000:653.639 JLINK_WriteReg(R4, 0x00000000)
T3DDC 000:653.652 - 0.019ms returns 0
T3DDC 000:653.668 JLINK_WriteReg(R5, 0x00000000)
T3DDC 000:653.681 - 0.019ms returns 0
T3DDC 000:653.697 JLINK_WriteReg(R6, 0x00000000)
T3DDC 000:653.709 - 0.019ms returns 0
T3DDC 000:653.725 JLINK_WriteReg(R7, 0x00000000)
T3DDC 000:653.738 - 0.019ms returns 0
T3DDC 000:653.754 JLINK_WriteReg(R8, 0x00000000)
T3DDC 000:653.788 - 0.040ms returns 0
T3DDC 000:653.805 JLINK_WriteReg(R9, 0x20000160)
T3DDC 000:653.818 - 0.019ms returns 0
T3DDC 000:653.833 JLINK_WriteReg(R10, 0x00000000)
T3DDC 000:653.846 - 0.019ms returns 0
T3DDC 000:653.862 JLINK_WriteReg(R11, 0x00000000)
T3DDC 000:653.875 - 0.019ms returns 0
T3DDC 000:653.891 JLINK_WriteReg(R12, 0x00000000)
T3DDC 000:653.904 - 0.019ms returns 0
T3DDC 000:653.919 JLINK_WriteReg(R13 (SP), 0x20001000)
T3DDC 000:653.934 - 0.020ms returns 0
T3DDC 000:653.950 JLINK_WriteReg(R14, 0x20000001)
T3DDC 000:653.963 - 0.019ms returns 0
T3DDC 000:653.979 JLINK_WriteReg(R15 (PC), 0x20000038)
T3DDC 000:654.006 - 0.038ms returns 0
T3DDC 000:654.027 JLINK_WriteReg(XPSR, 0x01000000)
T3DDC 000:654.040 - 0.019ms returns 0
T3DDC 000:654.056 JLINK_WriteReg(MSP, 0x20001000)
T3DDC 000:654.069 - 0.019ms returns 0
T3DDC 000:654.084 JLINK_WriteReg(PSP, 0x20001000)
T3DDC 000:654.097 - 0.019ms returns 0
T3DDC 000:654.113 JLINK_WriteReg(CFBP, 0x00000000)
T3DDC 000:654.126 - 0.019ms returns 0
T3DDC 000:654.158 JLINK_SetBPEx(Addr = 0x20000000, Type = 0xFFFFFFF2)
T3DDC 000:654.185   CPU_ReadMem(2 bytes @ 0x20000000)
T3DDC 000:654.841 - 0.699ms returns 0x00000001
T3DDC 000:654.873 JLINK_Go()
T3DDC 000:654.894   CPU_WriteMem(2 bytes @ 0x20000000)
T3DDC 000:655.528   CPU_ReadMem(4 bytes @ 0xE0001000)
T3DDC 000:656.087   CPU_WriteMem(4 bytes @ 0xE0002008)
T3DDC 000:656.117   CPU_WriteMem(4 bytes @ 0xE000200C)
T3DDC 000:656.137   CPU_WriteMem(4 bytes @ 0xE0002010)
T3DDC 000:656.156   CPU_WriteMem(4 bytes @ 0xE0002014)
T3DDC 000:656.176   CPU_WriteMem(4 bytes @ 0xE0002018)
T3DDC 000:656.195   CPU_WriteMem(4 bytes @ 0xE000201C)
T3DDC 000:658.713   CPU_WriteMem(4 bytes @ 0xE0001004)
T3DDC 000:663.397 - 8.557ms
T3DDC 000:663.460 JLINK_IsHalted()
T3DDC 000:667.392   CPU_ReadMem(2 bytes @ 0x20000000)
T3DDC 000:668.217 - 4.791ms returns TRUE
T3DDC 000:668.281 JLINK_ReadReg(R15 (PC))
T3DDC 000:668.306 - 0.033ms returns 0x20000000
T3DDC 000:668.327 JLINK_ClrBPEx(BPHandle = 0x00000001)
T3DDC 000:668.345 - 0.026ms returns 0x00
T3DDC 000:668.369 JLINK_ReadReg(R0)
T3DDC 000:668.386 - 0.024ms returns 0x00000000
T3DDC 000:669.243 JLINK_HasError()
T3DDC 000:669.283 JLINK_WriteReg(R0, 0x08000000)
T3DDC 000:669.305 - 0.030ms returns 0
T3DDC 000:669.325 JLINK_WriteReg(R1, 0x00B71B00)
T3DDC 000:669.341 - 0.023ms returns 0
T3DDC 000:669.361 JLINK_WriteReg(R2, 0x00000001)
T3DDC 000:669.376 - 0.023ms returns 0
T3DDC 000:669.395 JLINK_WriteReg(R3, 0x00000000)
T3DDC 000:669.411 - 0.023ms returns 0
T3DDC 000:669.430 JLINK_WriteReg(R4, 0x00000000)
T3DDC 000:669.445 - 0.022ms returns 0
T3DDC 000:669.464 JLINK_WriteReg(R5, 0x00000000)
T3DDC 000:669.479 - 0.022ms returns 0
T3DDC 000:669.498 JLINK_WriteReg(R6, 0x00000000)
T3DDC 000:669.514 - 0.023ms returns 0
T3DDC 000:669.532 JLINK_WriteReg(R7, 0x00000000)
T3DDC 000:669.548 - 0.022ms returns 0
T3DDC 000:669.570 JLINK_WriteReg(R8, 0x00000000)
T3DDC 000:669.590 - 0.037ms returns 0
T3DDC 000:669.629 JLINK_WriteReg(R9, 0x20000160)
T3DDC 000:669.661 - 0.040ms returns 0
T3DDC 000:669.682 JLINK_WriteReg(R10, 0x00000000)
T3DDC 000:669.699 - 0.023ms returns 0
T3DDC 000:669.718 JLINK_WriteReg(R11, 0x00000000)
T3DDC 000:669.734 - 0.023ms returns 0
T3DDC 000:669.753 JLINK_WriteReg(R12, 0x00000000)
T3DDC 000:669.768 - 0.023ms returns 0
T3DDC 000:669.787 JLINK_WriteReg(R13 (SP), 0x20001000)
T3DDC 000:669.804 - 0.024ms returns 0
T3DDC 000:669.823 JLINK_WriteReg(R14, 0x20000001)
T3DDC 000:669.839 - 0.023ms returns 0
T3DDC 000:669.858 JLINK_WriteReg(R15 (PC), 0x2000007C)
T3DDC 000:669.874 - 0.023ms returns 0
T3DDC 000:669.892 JLINK_WriteReg(XPSR, 0x01000000)
T3DDC 000:669.908 - 0.023ms returns 0
T3DDC 000:669.927 JLINK_WriteReg(MSP, 0x20001000)
T3DDC 000:669.943 - 0.023ms returns 0
T3DDC 000:669.961 JLINK_WriteReg(PSP, 0x20001000)
T3DDC 000:669.977 - 0.023ms returns 0
T3DDC 000:669.996 JLINK_WriteReg(CFBP, 0x00000000)
T3DDC 000:670.011 - 0.023ms returns 0
T3DDC 000:670.030 JLINK_SetBPEx(Addr = 0x20000000, Type = 0xFFFFFFF2)
T3DDC 000:670.049 - 0.026ms returns 0x00000002
T3DDC 000:670.069 JLINK_Go()
T3DDC 000:670.115   CPU_ReadMem(4 bytes @ 0xE0001000)
T3DDC 000:674.560 - 4.526ms
T3DDC 000:674.617 JLINK_IsHalted()
T3DDC 000:675.439 - 0.857ms returns FALSE
T3DDC 000:675.499 JLINK_HasError()
T3DDC 000:702.742 JLINK_IsHalted()
T3DDC 000:706.516   CPU_ReadMem(2 bytes @ 0x20000000)
T3DDC 000:707.171 - 4.449ms returns TRUE
T3DDC 000:707.214 JLINK_ReadReg(R15 (PC))
T3DDC 000:707.239 - 0.033ms returns 0x20000000
T3DDC 000:707.262 JLINK_ClrBPEx(BPHandle = 0x00000002)
T3DDC 000:707.281 - 0.027ms returns 0x00
T3DDC 000:707.302 JLINK_ReadReg(R0)
T3DDC 000:707.433 - 0.147ms returns 0x00000000
T3DDC 000:762.577 JLINK_HasError()
T3DDC 000:762.656 JLINK_WriteReg(R0, 0x00000001)
T3DDC 000:762.698 - 0.055ms returns 0
T3DDC 000:762.733 JLINK_WriteReg(R1, 0x00B71B00)
T3DDC 000:762.760 - 0.040ms returns 0
T3DDC 000:762.793 JLINK_WriteReg(R2, 0x00000001)
T3DDC 000:762.819 - 0.038ms returns 0
T3DDC 000:762.850 JLINK_WriteReg(R3, 0x00000000)
T3DDC 000:762.877 - 0.038ms returns 0
T3DDC 000:762.908 JLINK_WriteReg(R4, 0x00000000)
T3DDC 000:762.934 - 0.038ms returns 0
T3DDC 000:762.966 JLINK_WriteReg(R5, 0x00000000)
T3DDC 000:762.992 - 0.038ms returns 0
T3DDC 000:763.023 JLINK_WriteReg(R6, 0x00000000)
T3DDC 000:763.049 - 0.038ms returns 0
T3DDC 000:763.081 JLINK_WriteReg(R7, 0x00000000)
T3DDC 000:763.106 - 0.038ms returns 0
T3DDC 000:763.138 JLINK_WriteReg(R8, 0x00000000)
T3DDC 000:763.164 - 0.038ms returns 0
T3DDC 000:763.196 JLINK_WriteReg(R9, 0x20000160)
T3DDC 000:763.221 - 0.038ms returns 0
T3DDC 000:763.253 JLINK_WriteReg(R10, 0x00000000)
T3DDC 000:763.279 - 0.038ms returns 0
T3DDC 000:763.315 JLINK_WriteReg(R11, 0x00000000)
T3DDC 000:763.341 - 0.038ms returns 0
T3DDC 000:763.373 JLINK_WriteReg(R12, 0x00000000)
T3DDC 000:763.399 - 0.038ms returns 0
T3DDC 000:763.430 JLINK_WriteReg(R13 (SP), 0x20001000)
T3DDC 000:763.458 - 0.040ms returns 0
T3DDC 000:763.490 JLINK_WriteReg(R14, 0x20000001)
T3DDC 000:763.516 - 0.038ms returns 0
T3DDC 000:763.547 JLINK_WriteReg(R15 (PC), 0x2000006A)
T3DDC 000:763.574 - 0.038ms returns 0
T3DDC 000:763.605 JLINK_WriteReg(XPSR, 0x01000000)
T3DDC 000:763.631 - 0.038ms returns 0
T3DDC 000:763.662 JLINK_WriteReg(MSP, 0x20001000)
T3DDC 000:763.689 - 0.038ms returns 0
T3DDC 000:763.720 JLINK_WriteReg(PSP, 0x20001000)
T3DDC 000:763.746 - 0.038ms returns 0
T3DDC 000:763.777 JLINK_WriteReg(CFBP, 0x00000000)
T3DDC 000:763.803 - 0.038ms returns 0
T3DDC 000:763.835 JLINK_SetBPEx(Addr = 0x20000000, Type = 0xFFFFFFF2)
T3DDC 000:763.866 - 0.043ms returns 0x00000003
T3DDC 000:763.899 JLINK_Go()
T3DDC 000:763.956   CPU_ReadMem(4 bytes @ 0xE0001000)
T3DDC 000:768.946 - 5.098ms
T3DDC 000:769.034 JLINK_IsHalted()
T3DDC 000:772.939   CPU_ReadMem(2 bytes @ 0x20000000)
T3DDC 000:773.816 - 4.819ms returns TRUE
T3DDC 000:773.915 JLINK_ReadReg(R15 (PC))
T3DDC 000:773.956 - 0.053ms returns 0x20000000
T3DDC 000:773.994 JLINK_ClrBPEx(BPHandle = 0x00000003)
T3DDC 000:774.024 - 0.042ms returns 0x00
T3DDC 000:774.063 JLINK_ReadReg(R0)
T3DDC 000:774.090 - 0.040ms returns 0x00000000
T3DDC 000:791.795 JLINK_WriteMem(0x20000000, 0x164 Bytes, ...)
T3DDC 000:791.849   Data:  00 BE 0A E0 0D 78 2D 06 68 40 08 24 40 00 00 D3 ...
T3DDC 000:791.921   CPU_WriteMem(356 bytes @ 0x20000000)
T3DDC 000:797.136 - 5.418ms returns 0x164
T3DDC 000:797.357 JLINK_HasError()
T3DDC 000:797.403 JLINK_WriteReg(R0, 0x08000000)
T3DDC 000:797.442 - 0.052ms returns 0
T3DDC 000:797.476 JLINK_WriteReg(R1, 0x00B71B00)
T3DDC 000:797.504 - 0.041ms returns 0
T3DDC 000:797.537 JLINK_WriteReg(R2, 0x00000002)
T3DDC 000:797.564 - 0.040ms returns 0
T3DDC 000:797.597 JLINK_WriteReg(R3, 0x00000000)
T3DDC 000:797.624 - 0.039ms returns 0
T3DDC 000:797.656 JLINK_WriteReg(R4, 0x00000000)
T3DDC 000:797.683 - 0.039ms returns 0
T3DDC 000:797.715 JLINK_WriteReg(R5, 0x00000000)
T3DDC 000:797.742 - 0.039ms returns 0
T3DDC 000:797.774 JLINK_WriteReg(R6, 0x00000000)
T3DDC 000:797.801 - 0.040ms returns 0
T3DDC 000:797.833 JLINK_WriteReg(R7, 0x00000000)
T3DDC 000:797.860 - 0.039ms returns 0
T3DDC 000:797.892 JLINK_WriteReg(R8, 0x00000000)
T3DDC 000:797.919 - 0.039ms returns 0
T3DDC 000:797.951 JLINK_WriteReg(R9, 0x20000160)
T3DDC 000:797.978 - 0.039ms returns 0
T3DDC 000:798.010 JLINK_WriteReg(R10, 0x00000000)
T3DDC 000:798.037 - 0.039ms returns 0
T3DDC 000:798.069 JLINK_WriteReg(R11, 0x00000000)
T3DDC 000:798.096 - 0.039ms returns 0
T3DDC 000:798.128 JLINK_WriteReg(R12, 0x00000000)
T3DDC 000:798.170 - 0.056ms returns 0
T3DDC 000:798.204 JLINK_WriteReg(R13 (SP), 0x20001000)
T3DDC 000:798.234 - 0.042ms returns 0
T3DDC 000:798.274 JLINK_WriteReg(R14, 0x20000001)
T3DDC 000:798.322 - 0.061ms returns 0
T3DDC 000:798.356 JLINK_WriteReg(R15 (PC), 0x20000038)
T3DDC 000:798.383 - 0.040ms returns 0
T3DDC 000:798.416 JLINK_WriteReg(XPSR, 0x01000000)
T3DDC 000:798.443 - 0.039ms returns 0
T3DDC 000:798.475 JLINK_WriteReg(MSP, 0x20001000)
T3DDC 000:798.501 - 0.039ms returns 0
T3DDC 000:798.533 JLINK_WriteReg(PSP, 0x20001000)
T3DDC 000:798.560 - 0.039ms returns 0
T3DDC 000:798.592 JLINK_WriteReg(CFBP, 0x00000000)
T3DDC 000:798.619 - 0.039ms returns 0
T3DDC 000:798.652 JLINK_SetBPEx(Addr = 0x20000000, Type = 0xFFFFFFF2)
T3DDC 000:798.723   CPU_ReadMem(2 bytes @ 0x20000000)
T3DDC 000:799.547 - 0.929ms returns 0x00000004
T3DDC 000:799.623 JLINK_Go()
T3DDC 000:799.666   CPU_WriteMem(2 bytes @ 0x20000000)
T3DDC 000:800.377   CPU_ReadMem(4 bytes @ 0xE0001000)
T3DDC 000:805.038 - 5.462ms
T3DDC 000:805.130 JLINK_IsHalted()
T3DDC 000:809.185   CPU_ReadMem(2 bytes @ 0x20000000)
T3DDC 000:810.233 - 5.157ms returns TRUE
T3DDC 000:810.338 JLINK_ReadReg(R15 (PC))
T3DDC 000:810.385 - 0.060ms returns 0x20000000
T3DDC 000:810.427 JLINK_ClrBPEx(BPHandle = 0x00000004)
T3DDC 000:810.457 - 0.043ms returns 0x00
T3DDC 000:810.491 JLINK_ReadReg(R0)
T3DDC 000:810.518 - 0.039ms returns 0x00000000
T3DDC 000:811.696 JLINK_WriteMem(0x20000164, 0x29C Bytes, ...)
T3DDC 000:811.746   Data:  80 A4 00 20 E1 01 00 08 E9 01 00 08 9D 29 00 08 ...
T3DDC 000:811.847   CPU_WriteMem(668 bytes @ 0x20000164)
T3DDC 000:820.519 - 8.890ms returns 0x29C
T3DDC 000:820.625 JLINK_WriteMem(0x20000400, 0x164 Bytes, ...)
T3DDC 000:820.655   Data:  08 46 00 68 40 F0 80 70 08 60 00 BF 45 48 00 68 ...
T3DDC 000:820.730   CPU_WriteMem(356 bytes @ 0x20000400)
T3DDC 000:825.731 - 5.171ms returns 0x164
T3DDC 000:825.833 JLINK_HasError()
T3DDC 000:825.872 JLINK_WriteReg(R0, 0x08000000)
T3DDC 000:825.912 - 0.054ms returns 0
T3DDC 000:825.947 JLINK_WriteReg(R1, 0x00000400)
T3DDC 000:825.975 - 0.041ms returns 0
T3DDC 000:826.008 JLINK_WriteReg(R2, 0x20000164)
T3DDC 000:826.035 - 0.040ms returns 0
T3DDC 000:826.069 JLINK_WriteReg(R3, 0x00000000)
T3DDC 000:826.110 - 0.055ms returns 0
T3DDC 000:826.144 JLINK_WriteReg(R4, 0x00000000)
T3DDC 000:826.172 - 0.040ms returns 0
T3DDC 000:826.205 JLINK_WriteReg(R5, 0x00000000)
T3DDC 000:826.232 - 0.039ms returns 0
T3DDC 000:826.264 JLINK_WriteReg(R6, 0x00000000)
T3DDC 000:826.291 - 0.040ms returns 0
T3DDC 000:826.324 JLINK_WriteReg(R7, 0x00000000)
T3DDC 000:826.351 - 0.040ms returns 0
T3DDC 000:826.384 JLINK_WriteReg(R8, 0x00000000)
T3DDC 000:826.411 - 0.040ms returns 0
T3DDC 000:826.444 JLINK_WriteReg(R9, 0x20000160)
T3DDC 000:826.471 - 0.040ms returns 0
T3DDC 000:826.504 JLINK_WriteReg(R10, 0x00000000)
T3DDC 000:826.531 - 0.040ms returns 0
T3DDC 000:826.564 JLINK_WriteReg(R11, 0x00000000)
T3DDC 000:826.591 - 0.039ms returns 0
T3DDC 000:826.624 JLINK_WriteReg(R12, 0x00000000)
T3DDC 000:826.650 - 0.039ms returns 0
T3DDC 000:826.682 JLINK_WriteReg(R13 (SP), 0x20001000)
T3DDC 000:826.711 - 0.042ms returns 0
T3DDC 000:826.744 JLINK_WriteReg(R14, 0x20000001)
T3DDC 000:826.771 - 0.040ms returns 0
T3DDC 000:826.803 JLINK_WriteReg(R15 (PC), 0x200000F4)
T3DDC 000:826.831 - 0.040ms returns 0
T3DDC 000:826.863 JLINK_WriteReg(XPSR, 0x01000000)
T3DDC 000:826.890 - 0.039ms returns 0
T3DDC 000:826.923 JLINK_WriteReg(MSP, 0x20001000)
T3DDC 000:826.950 - 0.040ms returns 0
T3DDC 000:826.983 JLINK_WriteReg(PSP, 0x20001000)
T3DDC 000:827.010 - 0.039ms returns 0
T3DDC 000:827.042 JLINK_WriteReg(CFBP, 0x00000000)
T3DDC 000:827.069 - 0.040ms returns 0
T3DDC 000:827.106 JLINK_SetBPEx(Addr = 0x20000000, Type = 0xFFFFFFF2)
T3DDC 000:827.137 - 0.044ms returns 0x00000005
T3DDC 000:827.171 JLINK_Go()
T3DDC 000:827.224   CPU_ReadMem(4 bytes @ 0xE0001000)
T3DDC 000:831.523 - 4.396ms
T3DDC 000:831.600 JLINK_IsHalted()
T3DDC 000:832.368 - 0.802ms returns FALSE
T3DDC 000:832.434 JLINK_HasError()
T3DDC 000:843.161 JLINK_IsHalted()
T3DDC 000:843.933 - 0.805ms returns FALSE
T3DDC 000:844.000 JLINK_HasError()
T3DDC 000:846.177 JLINK_IsHalted()
T3DDC 000:846.933 - 0.796ms returns FALSE
T3DDC 000:847.005 JLINK_HasError()
T3DDC 000:849.180 JLINK_IsHalted()
T3DDC 000:849.949 - 0.803ms returns FALSE
T3DDC 000:850.015 JLINK_HasError()
T3DDC 000:852.105 JLINK_IsHalted()
T3DDC 000:852.785 - 0.717ms returns FALSE
T3DDC 000:852.855 JLINK_HasError()
T3DDC 000:855.210 JLINK_IsHalted()
T3DDC 000:856.178 - 1.024ms returns FALSE
T3DDC 000:856.274 JLINK_HasError()
T3DDC 000:858.281 JLINK_IsHalted()
T3DDC 000:859.018 - 0.772ms returns FALSE
T3DDC 000:859.087 JLINK_HasError()
T3DDC 000:861.274 JLINK_IsHalted()
T3DDC 000:862.012 - 0.774ms returns FALSE
T3DDC 000:862.090 JLINK_HasError()
T3DDC 000:864.296 JLINK_IsHalted()
T3DDC 000:868.403   CPU_ReadMem(2 bytes @ 0x20000000)
T3DDC 000:869.110 - 4.848ms returns TRUE
T3DDC 000:869.179 JLINK_ReadReg(R15 (PC))
T3DDC 000:869.218 - 0.052ms returns 0x20000000
T3DDC 000:869.253 JLINK_ClrBPEx(BPHandle = 0x00000005)
T3DDC 000:869.282 - 0.042ms returns 0x00
T3DDC 000:869.315 JLINK_ReadReg(R0)
T3DDC 000:869.342 - 0.039ms returns 0x00000000
T3DDC 000:871.371 JLINK_WriteMem(0x20000164, 0x29C Bytes, ...)
T3DDC 000:871.419   Data:  E0 64 C4 F5 E0 64 21 0A C1 F1 04 03 CA 40 44 78 ...
T3DDC 000:871.481   CPU_WriteMem(668 bytes @ 0x20000164)
T3DDC 000:880.268 - 8.950ms returns 0x29C
T3DDC 000:880.357 JLINK_WriteMem(0x20000400, 0x164 Bytes, ...)
T3DDC 000:880.388   Data:  53 60 C2 7A 3A B9 88 4A 12 1D 12 68 8A 43 86 4B ...
T3DDC 000:880.457   CPU_WriteMem(356 bytes @ 0x20000400)
T3DDC 000:885.479 - 5.173ms returns 0x164
T3DDC 000:885.567 JLINK_HasError()
T3DDC 000:885.607 JLINK_WriteReg(R0, 0x08000400)
T3DDC 000:885.649 - 0.056ms returns 0
T3DDC 000:885.683 JLINK_WriteReg(R1, 0x00000400)
T3DDC 000:885.712 - 0.041ms returns 0
T3DDC 000:885.744 JLINK_WriteReg(R2, 0x20000164)
T3DDC 000:885.772 - 0.040ms returns 0
T3DDC 000:885.805 JLINK_WriteReg(R3, 0x00000000)
T3DDC 000:885.832 - 0.039ms returns 0
T3DDC 000:885.865 JLINK_WriteReg(R4, 0x00000000)
T3DDC 000:885.892 - 0.040ms returns 0
T3DDC 000:885.925 JLINK_WriteReg(R5, 0x00000000)
T3DDC 000:885.952 - 0.039ms returns 0
T3DDC 000:885.984 JLINK_WriteReg(R6, 0x00000000)
T3DDC 000:886.024 - 0.071ms returns 0
T3DDC 000:886.106 JLINK_WriteReg(R7, 0x00000000)
T3DDC 000:886.152 - 0.059ms returns 0
T3DDC 000:886.187 JLINK_WriteReg(R8, 0x00000000)
T3DDC 000:886.214 - 0.040ms returns 0
T3DDC 000:886.247 JLINK_WriteReg(R9, 0x20000160)
T3DDC 000:886.273 - 0.039ms returns 0
T3DDC 000:886.305 JLINK_WriteReg(R10, 0x00000000)
T3DDC 000:886.332 - 0.039ms returns 0
T3DDC 000:886.364 JLINK_WriteReg(R11, 0x00000000)
T3DDC 000:886.391 - 0.039ms returns 0
T3DDC 000:886.423 JLINK_WriteReg(R12, 0x00000000)
T3DDC 000:886.449 - 0.038ms returns 0
T3DDC 000:886.481 JLINK_WriteReg(R13 (SP), 0x20001000)
T3DDC 000:886.510 - 0.041ms returns 0
T3DDC 000:886.542 JLINK_WriteReg(R14, 0x20000001)
T3DDC 000:886.569 - 0.039ms returns 0
T3DDC 000:886.601 JLINK_WriteReg(R15 (PC), 0x200000F4)
T3DDC 000:886.628 - 0.039ms returns 0
T3DDC 000:886.660 JLINK_WriteReg(XPSR, 0x01000000)
T3DDC 000:886.687 - 0.039ms returns 0
T3DDC 000:886.718 JLINK_WriteReg(MSP, 0x20001000)
T3DDC 000:886.745 - 0.039ms returns 0
T3DDC 000:886.777 JLINK_WriteReg(PSP, 0x20001000)
T3DDC 000:886.803 - 0.038ms returns 0
T3DDC 000:886.835 JLINK_WriteReg(CFBP, 0x00000000)
T3DDC 000:886.861 - 0.039ms returns 0
T3DDC 000:886.894 JLINK_SetBPEx(Addr = 0x20000000, Type = 0xFFFFFFF2)
T3DDC 000:886.926 - 0.045ms returns 0x00000006
T3DDC 000:886.960 JLINK_Go()
T3DDC 000:887.018   CPU_ReadMem(4 bytes @ 0xE0001000)
T3DDC 000:891.219 - 4.299ms
T3DDC 000:891.310 JLINK_IsHalted()
T3DDC 000:892.392 - 1.115ms returns FALSE
T3DDC 000:892.469 JLINK_HasError()
T3DDC 000:900.020 JLINK_IsHalted()
T3DDC 000:900.796 - 0.809ms returns FALSE
T3DDC 000:900.862 JLINK_HasError()
T3DDC 000:902.967 JLINK_IsHalted()
T3DDC 000:903.738 - 0.803ms returns FALSE
T3DDC 000:903.802 JLINK_HasError()
T3DDC 000:906.022 JLINK_IsHalted()
T3DDC 000:906.710 - 0.720ms returns FALSE
T3DDC 000:906.775 JLINK_HasError()
T3DDC 000:909.010 JLINK_IsHalted()
T3DDC 000:909.719 - 0.741ms returns FALSE
T3DDC 000:909.783 JLINK_HasError()
T3DDC 000:912.009 JLINK_IsHalted()
T3DDC 000:912.706 - 0.730ms returns FALSE
T3DDC 000:912.771 JLINK_HasError()
T3DDC 000:914.999 JLINK_IsHalted()
T3DDC 000:915.653 - 0.687ms returns FALSE
T3DDC 000:915.718 JLINK_HasError()
T3DDC 000:918.013 JLINK_IsHalted()
T3DDC 000:918.710 - 0.729ms returns FALSE
T3DDC 000:918.784 JLINK_HasError()
T3DDC 000:920.979 JLINK_IsHalted()
T3DDC 000:921.644 - 0.697ms returns FALSE
T3DDC 000:921.708 JLINK_HasError()
T3DDC 000:923.904 JLINK_IsHalted()
T3DDC 000:927.564   CPU_ReadMem(2 bytes @ 0x20000000)
T3DDC 000:928.178 - 4.295ms returns TRUE
T3DDC 000:928.221 JLINK_ReadReg(R15 (PC))
T3DDC 000:928.247 - 0.035ms returns 0x20000000
T3DDC 000:928.271 JLINK_ClrBPEx(BPHandle = 0x00000006)
T3DDC 000:928.292 - 0.029ms returns 0x00
T3DDC 000:928.315 JLINK_ReadReg(R0)
T3DDC 000:928.334 - 0.028ms returns 0x00000000
T3DDC 000:930.509 JLINK_WriteMem(0x20000164, 0x29C Bytes, ...)
T3DDC 000:930.545   Data:  00 6F 01 D1 01 20 08 E0 93 68 03 F0 80 53 B3 F1 ...
T3DDC 000:930.591   CPU_WriteMem(668 bytes @ 0x20000164)
T3DDC 000:939.149 - 8.674ms returns 0x29C
T3DDC 000:939.206 JLINK_WriteMem(0x20000400, 0x164 Bytes, ...)
T3DDC 000:939.230   Data:  D8 73 03 EB 01 13 DB 68 1B 0E 93 74 21 B9 C3 68 ...
T3DDC 000:939.272   CPU_WriteMem(356 bytes @ 0x20000400)
T3DDC 000:944.195 - 5.020ms returns 0x164
T3DDC 000:944.252 JLINK_HasError()
T3DDC 000:944.279 JLINK_WriteReg(R0, 0x08000800)
T3DDC 000:944.308 - 0.038ms returns 0
T3DDC 000:944.332 JLINK_WriteReg(R1, 0x00000400)
T3DDC 000:944.351 - 0.028ms returns 0
T3DDC 000:944.374 JLINK_WriteReg(R2, 0x20000164)
T3DDC 000:944.393 - 0.027ms returns 0
T3DDC 000:944.415 JLINK_WriteReg(R3, 0x00000000)
T3DDC 000:944.434 - 0.027ms returns 0
T3DDC 000:944.457 JLINK_WriteReg(R4, 0x00000000)
T3DDC 000:944.475 - 0.027ms returns 0
T3DDC 000:944.497 JLINK_WriteReg(R5, 0x00000000)
T3DDC 000:944.516 - 0.027ms returns 0
T3DDC 000:944.539 JLINK_WriteReg(R6, 0x00000000)
T3DDC 000:944.557 - 0.027ms returns 0
T3DDC 000:944.580 JLINK_WriteReg(R7, 0x00000000)
T3DDC 000:944.598 - 0.027ms returns 0
T3DDC 000:944.621 JLINK_WriteReg(R8, 0x00000000)
T3DDC 000:944.640 - 0.027ms returns 0
T3DDC 000:944.662 JLINK_WriteReg(R9, 0x20000160)
T3DDC 000:944.680 - 0.027ms returns 0
T3DDC 000:944.703 JLINK_WriteReg(R10, 0x00000000)
T3DDC 000:944.722 - 0.027ms returns 0
T3DDC 000:944.744 JLINK_WriteReg(R11, 0x00000000)
T3DDC 000:944.763 - 0.027ms returns 0
T3DDC 000:944.785 JLINK_WriteReg(R12, 0x00000000)
T3DDC 000:944.804 - 0.027ms returns 0
T3DDC 000:944.832 JLINK_WriteReg(R13 (SP), 0x20001000)
T3DDC 000:944.852 - 0.029ms returns 0
T3DDC 000:944.874 JLINK_WriteReg(R14, 0x20000001)
T3DDC 000:944.893 - 0.027ms returns 0
T3DDC 000:944.922 JLINK_WriteReg(R15 (PC), 0x200000F4)
T3DDC 000:944.942 - 0.028ms returns 0
T3DDC 000:944.964 JLINK_WriteReg(XPSR, 0x01000000)
T3DDC 000:944.983 - 0.027ms returns 0
T3DDC 000:945.141 JLINK_WriteReg(MSP, 0x20001000)
T3DDC 000:945.182 - 0.050ms returns 0
T3DDC 000:945.207 JLINK_WriteReg(PSP, 0x20001000)
T3DDC 000:945.228 - 0.029ms returns 0
T3DDC 000:945.251 JLINK_WriteReg(CFBP, 0x00000000)
T3DDC 000:945.270 - 0.028ms returns 0
T3DDC 000:945.294 JLINK_SetBPEx(Addr = 0x20000000, Type = 0xFFFFFFF2)
T3DDC 000:945.317 - 0.032ms returns 0x00000007
T3DDC 000:945.340 JLINK_Go()
T3DDC 000:945.378   CPU_ReadMem(4 bytes @ 0xE0001000)
T3DDC 000:949.398 - 4.085ms
T3DDC 000:949.448 JLINK_IsHalted()
T3DDC 000:950.071 - 0.646ms returns FALSE
T3DDC 000:950.117 JLINK_HasError()
T3DDC 000:953.876 JLINK_IsHalted()
T3DDC 000:954.522 - 0.669ms returns FALSE
T3DDC 000:954.569 JLINK_HasError()
T3DDC 000:955.824 JLINK_IsHalted()
T3DDC 000:956.477 - 0.678ms returns FALSE
T3DDC 000:956.525 JLINK_HasError()
T3DDC 000:957.809 JLINK_IsHalted()
T3DDC 000:958.427 - 0.639ms returns FALSE
T3DDC 000:958.470 JLINK_HasError()
T3DDC 000:959.811 JLINK_IsHalted()
T3DDC 000:960.440 - 0.651ms returns FALSE
T3DDC 000:960.483 JLINK_HasError()
T3DDC 000:962.824 JLINK_IsHalted()
T3DDC 000:963.518 - 0.716ms returns FALSE
T3DDC 000:963.562 JLINK_HasError()
T3DDC 000:965.012 JLINK_IsHalted()
T3DDC 000:965.805 - 0.831ms returns FALSE
T3DDC 000:965.868 JLINK_HasError()
T3DDC 000:968.002 JLINK_IsHalted()
T3DDC 000:968.843 - 0.879ms returns FALSE
T3DDC 000:968.907 JLINK_HasError()
T3DDC 000:970.993 JLINK_IsHalted()
T3DDC 000:971.803 - 0.848ms returns FALSE
T3DDC 000:971.868 JLINK_HasError()
T3DDC 000:973.788 JLINK_IsHalted()
T3DDC 000:974.520 - 0.765ms returns FALSE
T3DDC 000:974.578 JLINK_HasError()
T3DDC 000:975.937 JLINK_IsHalted()
T3DDC 000:976.760 - 0.864ms returns FALSE
T3DDC 000:976.830 JLINK_HasError()
T3DDC 000:978.928 JLINK_IsHalted()
T3DDC 000:979.768 - 0.880ms returns FALSE
T3DDC 000:979.835 JLINK_HasError()
T3DDC 000:981.879 JLINK_IsHalted()
T3DDC 000:985.828   CPU_ReadMem(2 bytes @ 0x20000000)
T3DDC 000:986.671 - 4.829ms returns TRUE
T3DDC 000:986.740 JLINK_ReadReg(R15 (PC))
T3DDC 000:986.769 - 0.038ms returns 0x20000000
T3DDC 000:986.793 JLINK_ClrBPEx(BPHandle = 0x00000007)
T3DDC 000:986.813 - 0.029ms returns 0x00
T3DDC 000:986.837 JLINK_ReadReg(R0)
T3DDC 000:986.856 - 0.028ms returns 0x00000000
T3DDC 000:988.266 JLINK_WriteMem(0x20000164, 0x29C Bytes, ...)
T3DDC 000:988.302   Data:  07 40 70 47 1A B1 43 69 0B 43 43 61 02 E0 43 69 ...
T3DDC 000:988.349   CPU_WriteMem(668 bytes @ 0x20000164)
T3DDC 000:997.040 - 8.812ms returns 0x29C
T3DDC 000:997.133 JLINK_WriteMem(0x20000400, 0x164 Bytes, ...)
T3DDC 000:997.161   Data:  00 22 82 61 04 22 42 60 00 E0 00 BF 00 BF 70 47 ...
T3DDC 000:997.223   CPU_WriteMem(356 bytes @ 0x20000400)
T3DDC 001:002.256 - 5.174ms returns 0x164
T3DDC 001:002.357 JLINK_HasError()
T3DDC 001:002.397 JLINK_WriteReg(R0, 0x08000C00)
T3DDC 001:002.441 - 0.057ms returns 0
T3DDC 001:002.481 JLINK_WriteReg(R1, 0x00000400)
T3DDC 001:002.510 - 0.042ms returns 0
T3DDC 001:002.543 JLINK_WriteReg(R2, 0x20000164)
T3DDC 001:002.570 - 0.040ms returns 0
T3DDC 001:002.608 JLINK_WriteReg(R3, 0x00000000)
T3DDC 001:002.636 - 0.040ms returns 0
T3DDC 001:002.681 JLINK_WriteReg(R4, 0x00000000)
T3DDC 001:002.711 - 0.044ms returns 0
T3DDC 001:002.746 JLINK_WriteReg(R5, 0x00000000)
T3DDC 001:002.773 - 0.040ms returns 0
T3DDC 001:002.810 JLINK_WriteReg(R6, 0x00000000)
T3DDC 001:002.837 - 0.039ms returns 0
T3DDC 001:002.869 JLINK_WriteReg(R7, 0x00000000)
T3DDC 001:002.895 - 0.038ms returns 0
T3DDC 001:002.932 JLINK_WriteReg(R8, 0x00000000)
T3DDC 001:002.958 - 0.039ms returns 0
T3DDC 001:002.996 JLINK_WriteReg(R9, 0x20000160)
T3DDC 001:003.023 - 0.039ms returns 0
T3DDC 001:003.059 JLINK_WriteReg(R10, 0x00000000)
T3DDC 001:003.086 - 0.039ms returns 0
T3DDC 001:003.124 JLINK_WriteReg(R11, 0x00000000)
T3DDC 001:003.150 - 0.039ms returns 0
T3DDC 001:003.186 JLINK_WriteReg(R12, 0x00000000)
T3DDC 001:003.213 - 0.039ms returns 0
T3DDC 001:003.245 JLINK_WriteReg(R13 (SP), 0x20001000)
T3DDC 001:003.274 - 0.041ms returns 0
T3DDC 001:003.311 JLINK_WriteReg(R14, 0x20000001)
T3DDC 001:003.337 - 0.039ms returns 0
T3DDC 001:003.375 JLINK_WriteReg(R15 (PC), 0x200000F4)
T3DDC 001:003.402 - 0.039ms returns 0
T3DDC 001:003.440 JLINK_WriteReg(XPSR, 0x01000000)
T3DDC 001:003.466 - 0.039ms returns 0
T3DDC 001:003.498 JLINK_WriteReg(MSP, 0x20001000)
T3DDC 001:003.524 - 0.038ms returns 0
T3DDC 001:003.560 JLINK_WriteReg(PSP, 0x20001000)
T3DDC 001:003.587 - 0.038ms returns 0
T3DDC 001:003.618 JLINK_WriteReg(CFBP, 0x00000000)
T3DDC 001:003.644 - 0.038ms returns 0
T3DDC 001:003.684 JLINK_SetBPEx(Addr = 0x20000000, Type = 0xFFFFFFF2)
T3DDC 001:003.716 - 0.044ms returns 0x00000008
T3DDC 001:003.755 JLINK_Go()
T3DDC 001:003.814   CPU_ReadMem(4 bytes @ 0xE0001000)
T3DDC 001:008.338 - 4.632ms
T3DDC 001:008.431 JLINK_IsHalted()
T3DDC 001:009.140 - 0.742ms returns FALSE
T3DDC 001:009.214 JLINK_HasError()
T3DDC 001:010.649 JLINK_IsHalted()
T3DDC 001:011.326 - 0.709ms returns FALSE
T3DDC 001:011.392 JLINK_HasError()
T3DDC 001:012.909 JLINK_IsHalted()
T3DDC 001:013.780 - 0.922ms returns FALSE
T3DDC 001:013.881 JLINK_HasError()
T3DDC 001:015.881 JLINK_IsHalted()
T3DDC 001:016.682 - 0.838ms returns FALSE
T3DDC 001:016.761 JLINK_HasError()
T3DDC 001:018.886 JLINK_IsHalted()
T3DDC 001:019.892 - 1.059ms returns FALSE
T3DDC 001:019.982 JLINK_HasError()
T3DDC 001:021.876 JLINK_IsHalted()
T3DDC 001:022.878 - 1.055ms returns FALSE
T3DDC 001:022.970 JLINK_HasError()
T3DDC 001:024.833 JLINK_IsHalted()
T3DDC 001:025.688 - 0.907ms returns FALSE
T3DDC 001:025.777 JLINK_HasError()
T3DDC 001:027.804 JLINK_IsHalted()
T3DDC 001:028.569 - 0.802ms returns FALSE
T3DDC 001:028.641 JLINK_HasError()
T3DDC 001:030.698 JLINK_IsHalted()
T3DDC 001:031.390 - 0.725ms returns FALSE
T3DDC 001:031.454 JLINK_HasError()
T3DDC 001:033.685 JLINK_IsHalted()
T3DDC 001:034.386 - 0.734ms returns FALSE
T3DDC 001:034.450 JLINK_HasError()
T3DDC 001:036.673 JLINK_IsHalted()
T3DDC 001:037.395 - 0.754ms returns FALSE
T3DDC 001:037.458 JLINK_HasError()
T3DDC 001:039.656 JLINK_IsHalted()
T3DDC 001:043.504   CPU_ReadMem(2 bytes @ 0x20000000)
T3DDC 001:044.232 - 4.609ms returns TRUE
T3DDC 001:044.299 JLINK_ReadReg(R15 (PC))
T3DDC 001:044.338 - 0.052ms returns 0x20000000
T3DDC 001:044.373 JLINK_ClrBPEx(BPHandle = 0x00000008)
T3DDC 001:044.402 - 0.042ms returns 0x00
T3DDC 001:044.436 JLINK_ReadReg(R0)
T3DDC 001:044.494 - 0.107ms returns 0x00000000
T3DDC 001:047.094 JLINK_WriteMem(0x20000164, 0x29C Bytes, ...)
T3DDC 001:047.155   Data:  00 FC C2 F8 10 C0 40 1C 08 28 D1 D3 14 60 B1 F8 ...
T3DDC 001:047.240   CPU_WriteMem(668 bytes @ 0x20000164)
T3DDC 001:055.895 - 8.838ms returns 0x29C
T3DDC 001:055.965 JLINK_WriteMem(0x20000400, 0x164 Bytes, ...)
T3DDC 001:055.996   Data:  4A 11 01 2A 02 D1 BA 4C 23 68 06 E0 02 2A 02 D1 ...
T3DDC 001:056.057   CPU_WriteMem(356 bytes @ 0x20000400)
T3DDC 001:061.066 - 5.141ms returns 0x164
T3DDC 001:061.150 JLINK_HasError()
T3DDC 001:061.189 JLINK_WriteReg(R0, 0x08001000)
T3DDC 001:061.229 - 0.053ms returns 0
T3DDC 001:061.270 JLINK_WriteReg(R1, 0x00000400)
T3DDC 001:061.300 - 0.043ms returns 0
T3DDC 001:061.362 JLINK_WriteReg(R2, 0x20000164)
T3DDC 001:061.391 - 0.043ms returns 0
T3DDC 001:061.425 JLINK_WriteReg(R3, 0x00000000)
T3DDC 001:061.462 - 0.051ms returns 0
T3DDC 001:061.502 JLINK_WriteReg(R4, 0x00000000)
T3DDC 001:061.530 - 0.040ms returns 0
T3DDC 001:061.569 JLINK_WriteReg(R5, 0x00000000)
T3DDC 001:061.596 - 0.040ms returns 0
T3DDC 001:061.634 JLINK_WriteReg(R6, 0x00000000)
T3DDC 001:061.661 - 0.040ms returns 0
T3DDC 001:061.700 JLINK_WriteReg(R7, 0x00000000)
T3DDC 001:061.727 - 0.040ms returns 0
T3DDC 001:061.764 JLINK_WriteReg(R8, 0x00000000)
T3DDC 001:061.792 - 0.040ms returns 0
T3DDC 001:061.824 JLINK_WriteReg(R9, 0x20000160)
T3DDC 001:061.851 - 0.039ms returns 0
T3DDC 001:061.889 JLINK_WriteReg(R10, 0x00000000)
T3DDC 001:061.917 - 0.040ms returns 0
T3DDC 001:061.954 JLINK_WriteReg(R11, 0x00000000)
T3DDC 001:061.981 - 0.040ms returns 0
T3DDC 001:062.014 JLINK_WriteReg(R12, 0x00000000)
T3DDC 001:062.040 - 0.039ms returns 0
T3DDC 001:062.079 JLINK_WriteReg(R13 (SP), 0x20001000)
T3DDC 001:062.108 - 0.042ms returns 0
T3DDC 001:062.145 JLINK_WriteReg(R14, 0x20000001)
T3DDC 001:062.172 - 0.040ms returns 0
T3DDC 001:062.205 JLINK_WriteReg(R15 (PC), 0x200000F4)
T3DDC 001:062.232 - 0.040ms returns 0
T3DDC 001:062.271 JLINK_WriteReg(XPSR, 0x01000000)
T3DDC 001:062.297 - 0.039ms returns 0
T3DDC 001:062.335 JLINK_WriteReg(MSP, 0x20001000)
T3DDC 001:062.361 - 0.039ms returns 0
T3DDC 001:062.394 JLINK_WriteReg(PSP, 0x20001000)
T3DDC 001:062.420 - 0.038ms returns 0
T3DDC 001:062.472 JLINK_WriteReg(CFBP, 0x00000000)
T3DDC 001:062.500 - 0.041ms returns 0
T3DDC 001:062.534 JLINK_SetBPEx(Addr = 0x20000000, Type = 0xFFFFFFF2)
T3DDC 001:062.578 - 0.058ms returns 0x00000009
T3DDC 001:062.617 JLINK_Go()
T3DDC 001:062.670   CPU_ReadMem(4 bytes @ 0xE0001000)
T3DDC 001:066.990 - 4.409ms
T3DDC 001:067.068 JLINK_IsHalted()
T3DDC 001:067.742 - 0.707ms returns FALSE
T3DDC 001:067.817 JLINK_HasError()
T3DDC 001:073.535 JLINK_IsHalted()
T3DDC 001:074.296 - 0.801ms returns FALSE
T3DDC 001:074.375 JLINK_HasError()
T3DDC 001:076.544 JLINK_IsHalted()
T3DDC 001:077.322 - 0.820ms returns FALSE
T3DDC 001:077.399 JLINK_HasError()
T3DDC 001:079.714 JLINK_IsHalted()
T3DDC 001:080.700 - 1.038ms returns FALSE
T3DDC 001:080.789 JLINK_HasError()
T3DDC 001:082.710 JLINK_IsHalted()
T3DDC 001:083.585 - 0.927ms returns FALSE
T3DDC 001:083.674 JLINK_HasError()
T3DDC 001:085.682 JLINK_IsHalted()
T3DDC 001:086.488 - 0.853ms returns FALSE
T3DDC 001:086.572 JLINK_HasError()
T3DDC 001:088.707 JLINK_IsHalted()
T3DDC 001:089.518 - 0.880ms returns FALSE
T3DDC 001:089.636 JLINK_HasError()
T3DDC 001:091.632 JLINK_IsHalted()
T3DDC 001:092.539 - 0.959ms returns FALSE
T3DDC 001:092.629 JLINK_HasError()
T3DDC 001:094.639 JLINK_IsHalted()
T3DDC 001:095.598 - 1.011ms returns FALSE
T3DDC 001:095.686 JLINK_HasError()
T3DDC 001:097.632 JLINK_IsHalted()
T3DDC 001:101.697   CPU_ReadMem(2 bytes @ 0x20000000)
T3DDC 001:102.429 - 4.833ms returns TRUE
T3DDC 001:102.500 JLINK_ReadReg(R15 (PC))
T3DDC 001:102.540 - 0.053ms returns 0x20000000
T3DDC 001:102.575 JLINK_ClrBPEx(BPHandle = 0x00000009)
T3DDC 001:102.605 - 0.043ms returns 0x00
T3DDC 001:102.639 JLINK_ReadReg(R0)
T3DDC 001:102.667 - 0.041ms returns 0x00000000
T3DDC 001:105.040 JLINK_WriteMem(0x20000164, 0x29C Bytes, ...)
T3DDC 001:105.091   Data:  62 4A 11 62 70 47 65 49 44 39 08 60 70 47 30 B5 ...
T3DDC 001:105.158   CPU_WriteMem(668 bytes @ 0x20000164)
T3DDC 001:113.808 - 8.820ms returns 0x29C
T3DDC 001:113.896 JLINK_WriteMem(0x20000400, 0x164 Bytes, ...)
T3DDC 001:113.926   Data:  00 21 4F F4 80 10 FF F7 3B FF 56 E0 CA 48 84 42 ...
T3DDC 001:113.995   CPU_WriteMem(356 bytes @ 0x20000400)
T3DDC 001:119.136 - 5.291ms returns 0x164
T3DDC 001:119.226 JLINK_HasError()
T3DDC 001:119.265 JLINK_WriteReg(R0, 0x08001400)
T3DDC 001:119.308 - 0.056ms returns 0
T3DDC 001:119.342 JLINK_WriteReg(R1, 0x00000400)
T3DDC 001:119.380 - 0.051ms returns 0
T3DDC 001:119.414 JLINK_WriteReg(R2, 0x20000164)
T3DDC 001:119.441 - 0.040ms returns 0
T3DDC 001:119.474 JLINK_WriteReg(R3, 0x00000000)
T3DDC 001:119.502 - 0.041ms returns 0
T3DDC 001:119.545 JLINK_WriteReg(R4, 0x00000000)
T3DDC 001:119.573 - 0.041ms returns 0
T3DDC 001:119.606 JLINK_WriteReg(R5, 0x00000000)
T3DDC 001:119.634 - 0.040ms returns 0
T3DDC 001:119.672 JLINK_WriteReg(R6, 0x00000000)
T3DDC 001:119.699 - 0.040ms returns 0
T3DDC 001:119.742 JLINK_WriteReg(R7, 0x00000000)
T3DDC 001:119.799 - 0.083ms returns 0
T3DDC 001:119.885 JLINK_WriteReg(R8, 0x00000000)
T3DDC 001:119.965 - 0.124ms returns 0
T3DDC 001:120.061 JLINK_WriteReg(R9, 0x20000160)
T3DDC 001:120.144 - 0.116ms returns 0
T3DDC 001:120.224 JLINK_WriteReg(R10, 0x00000000)
T3DDC 001:120.273 - 0.067ms returns 0
T3DDC 001:120.326 JLINK_WriteReg(R11, 0x00000000)
T3DDC 001:120.368 - 0.060ms returns 0
T3DDC 001:120.421 JLINK_WriteReg(R12, 0x00000000)
T3DDC 001:120.479 - 0.076ms returns 0
T3DDC 001:120.528 JLINK_WriteReg(R13 (SP), 0x20001000)
T3DDC 001:120.559 - 0.044ms returns 0
T3DDC 001:120.591 JLINK_WriteReg(R14, 0x20000001)
T3DDC 001:120.618 - 0.039ms returns 0
T3DDC 001:120.656 JLINK_WriteReg(R15 (PC), 0x200000F4)
T3DDC 001:120.683 - 0.040ms returns 0
T3DDC 001:120.721 JLINK_WriteReg(XPSR, 0x01000000)
T3DDC 001:120.748 - 0.039ms returns 0
T3DDC 001:120.785 JLINK_WriteReg(MSP, 0x20001000)
T3DDC 001:120.811 - 0.038ms returns 0
T3DDC 001:120.848 JLINK_WriteReg(PSP, 0x20001000)
T3DDC 001:120.875 - 0.039ms returns 0
T3DDC 001:120.913 JLINK_WriteReg(CFBP, 0x00000000)
T3DDC 001:120.939 - 0.039ms returns 0
T3DDC 001:120.978 JLINK_SetBPEx(Addr = 0x20000000, Type = 0xFFFFFFF2)
T3DDC 001:121.010 - 0.046ms returns 0x0000000A
T3DDC 001:121.049 JLINK_Go()
T3DDC 001:121.105   CPU_ReadMem(4 bytes @ 0xE0001000)
T3DDC 001:125.754 - 4.753ms
T3DDC 001:125.846 JLINK_IsHalted()
T3DDC 001:126.599 - 0.794ms returns FALSE
T3DDC 001:126.683 JLINK_HasError()
T3DDC 001:128.572 JLINK_IsHalted()
T3DDC 001:129.407 - 0.888ms returns FALSE
T3DDC 001:129.500 JLINK_HasError()
T3DDC 001:131.516 JLINK_IsHalted()
T3DDC 001:132.389 - 0.936ms returns FALSE
T3DDC 001:132.489 JLINK_HasError()
T3DDC 001:134.619 JLINK_IsHalted()
T3DDC 001:135.448 - 0.876ms returns FALSE
T3DDC 001:135.532 JLINK_HasError()
T3DDC 001:137.572 JLINK_IsHalted()
T3DDC 001:138.515 - 0.995ms returns FALSE
T3DDC 001:138.603 JLINK_HasError()
T3DDC 001:140.335 JLINK_IsHalted()
T3DDC 001:141.087 - 0.785ms returns FALSE
T3DDC 001:141.153 JLINK_HasError()
T3DDC 001:142.505 JLINK_IsHalted()
T3DDC 001:143.350 - 0.897ms returns FALSE
T3DDC 001:143.439 JLINK_HasError()
T3DDC 001:145.480 JLINK_IsHalted()
T3DDC 001:146.346 - 0.918ms returns FALSE
T3DDC 001:146.434 JLINK_HasError()
T3DDC 001:148.486 JLINK_IsHalted()
T3DDC 001:149.307 - 0.871ms returns FALSE
T3DDC 001:149.393 JLINK_HasError()
T3DDC 001:151.336 JLINK_IsHalted()
T3DDC 001:152.125 - 0.830ms returns FALSE
T3DDC 001:152.290 JLINK_HasError()
T3DDC 001:159.345 JLINK_IsHalted()
T3DDC 001:163.098   CPU_ReadMem(2 bytes @ 0x20000000)
T3DDC 001:163.830 - 4.517ms returns TRUE
T3DDC 001:163.895 JLINK_ReadReg(R15 (PC))
T3DDC 001:163.933 - 0.052ms returns 0x20000000
T3DDC 001:163.968 JLINK_ClrBPEx(BPHandle = 0x0000000A)
T3DDC 001:163.998 - 0.043ms returns 0x00
T3DDC 001:164.032 JLINK_ReadReg(R0)
T3DDC 001:164.059 - 0.040ms returns 0x00000000
T3DDC 001:165.951 JLINK_WriteMem(0x20000164, 0x29C Bytes, ...)
T3DDC 001:165.998   Data:  4D 88 2A 43 6A 4D A8 42 0B D0 6F 4D A8 42 08 D0 ...
T3DDC 001:166.059   CPU_WriteMem(668 bytes @ 0x20000164)
T3DDC 001:174.707 - 8.792ms returns 0x29C
T3DDC 001:174.777 JLINK_WriteMem(0x20000400, 0x164 Bytes, ...)
T3DDC 001:174.807   Data:  B8 42 0B D0 B0 F1 80 4F 08 D0 D7 4F B8 42 05 D0 ...
T3DDC 001:174.869   CPU_WriteMem(356 bytes @ 0x20000400)
T3DDC 001:179.702 - 4.959ms returns 0x164
T3DDC 001:179.779 JLINK_HasError()
T3DDC 001:179.817 JLINK_WriteReg(R0, 0x08001800)
T3DDC 001:179.855 - 0.051ms returns 0
T3DDC 001:179.894 JLINK_WriteReg(R1, 0x00000400)
T3DDC 001:179.922 - 0.041ms returns 0
T3DDC 001:179.960 JLINK_WriteReg(R2, 0x20000164)
T3DDC 001:179.987 - 0.039ms returns 0
T3DDC 001:180.019 JLINK_WriteReg(R3, 0x00000000)
T3DDC 001:180.045 - 0.039ms returns 0
T3DDC 001:180.083 JLINK_WriteReg(R4, 0x00000000)
T3DDC 001:180.109 - 0.038ms returns 0
T3DDC 001:180.153 JLINK_WriteReg(R5, 0x00000000)
T3DDC 001:180.180 - 0.039ms returns 0
T3DDC 001:180.212 JLINK_WriteReg(R6, 0x00000000)
T3DDC 001:180.238 - 0.038ms returns 0
T3DDC 001:180.276 JLINK_WriteReg(R7, 0x00000000)
T3DDC 001:180.302 - 0.039ms returns 0
T3DDC 001:180.339 JLINK_WriteReg(R8, 0x00000000)
T3DDC 001:180.365 - 0.039ms returns 0
T3DDC 001:180.397 JLINK_WriteReg(R9, 0x20000160)
T3DDC 001:180.423 - 0.038ms returns 0
T3DDC 001:180.461 JLINK_WriteReg(R10, 0x00000000)
T3DDC 001:180.488 - 0.039ms returns 0
T3DDC 001:180.524 JLINK_WriteReg(R11, 0x00000000)
T3DDC 001:180.550 - 0.038ms returns 0
T3DDC 001:180.582 JLINK_WriteReg(R12, 0x00000000)
T3DDC 001:180.608 - 0.038ms returns 0
T3DDC 001:180.646 JLINK_WriteReg(R13 (SP), 0x20001000)
T3DDC 001:180.674 - 0.041ms returns 0
T3DDC 001:180.711 JLINK_WriteReg(R14, 0x20000001)
T3DDC 001:180.738 - 0.039ms returns 0
T3DDC 001:180.775 JLINK_WriteReg(R15 (PC), 0x200000F4)
T3DDC 001:180.802 - 0.039ms returns 0
T3DDC 001:180.838 JLINK_WriteReg(XPSR, 0x01000000)
T3DDC 001:180.865 - 0.039ms returns 0
T3DDC 001:180.897 JLINK_WriteReg(MSP, 0x20001000)
T3DDC 001:180.923 - 0.038ms returns 0
T3DDC 001:180.961 JLINK_WriteReg(PSP, 0x20001000)
T3DDC 001:180.987 - 0.038ms returns 0
T3DDC 001:181.024 JLINK_WriteReg(CFBP, 0x00000000)
T3DDC 001:181.050 - 0.038ms returns 0
T3DDC 001:181.082 JLINK_SetBPEx(Addr = 0x20000000, Type = 0xFFFFFFF2)
T3DDC 001:181.113 - 0.042ms returns 0x0000000B
T3DDC 001:181.154 JLINK_Go()
T3DDC 001:181.204   CPU_ReadMem(4 bytes @ 0xE0001000)
T3DDC 001:185.415 - 4.298ms
T3DDC 001:185.493 JLINK_IsHalted()
T3DDC 001:186.279 - 0.838ms returns FALSE
T3DDC 001:186.379 JLINK_HasError()
T3DDC 001:188.429 JLINK_IsHalted()
T3DDC 001:189.372 - 0.997ms returns FALSE
T3DDC 001:189.465 JLINK_HasError()
T3DDC 001:191.224 JLINK_IsHalted()
T3DDC 001:192.148 - 0.975ms returns FALSE
T3DDC 001:192.233 JLINK_HasError()
T3DDC 001:194.416 JLINK_IsHalted()
T3DDC 001:195.138 - 0.758ms returns FALSE
T3DDC 001:195.228 JLINK_HasError()
T3DDC 001:197.427 JLINK_IsHalted()
T3DDC 001:198.286 - 0.901ms returns FALSE
T3DDC 001:198.363 JLINK_HasError()
T3DDC 001:200.401 JLINK_IsHalted()
T3DDC 001:201.395 - 1.047ms returns FALSE
T3DDC 001:201.484 JLINK_HasError()
T3DDC 001:203.343 JLINK_IsHalted()
T3DDC 001:204.148 - 0.851ms returns FALSE
T3DDC 001:204.230 JLINK_HasError()
T3DDC 001:206.258 JLINK_IsHalted()
T3DDC 001:207.055 - 0.851ms returns FALSE
T3DDC 001:207.147 JLINK_HasError()
T3DDC 001:209.325 JLINK_IsHalted()
T3DDC 001:210.274 - 1.001ms returns FALSE
T3DDC 001:210.364 JLINK_HasError()
T3DDC 001:212.351 JLINK_IsHalted()
T3DDC 001:213.171 - 0.859ms returns FALSE
T3DDC 001:213.244 JLINK_HasError()
T3DDC 001:215.391 JLINK_IsHalted()
T3DDC 001:216.362 - 1.023ms returns FALSE
T3DDC 001:216.450 JLINK_HasError()
T3DDC 001:218.392 JLINK_IsHalted()
T3DDC 001:222.541   CPU_ReadMem(2 bytes @ 0x20000000)
T3DDC 001:223.335 - 4.989ms returns TRUE
T3DDC 001:223.414 JLINK_ReadReg(R15 (PC))
T3DDC 001:223.456 - 0.056ms returns 0x20000000
T3DDC 001:223.492 JLINK_ClrBPEx(BPHandle = 0x0000000B)
T3DDC 001:223.522 - 0.043ms returns 0x00
T3DDC 001:223.556 JLINK_ReadReg(R0)
T3DDC 001:223.583 - 0.040ms returns 0x00000000
T3DDC 001:225.563 JLINK_WriteMem(0x20000164, 0x29C Bytes, ...)
T3DDC 001:225.609   Data:  02 8B 4F F6 F3 73 1A 40 02 83 02 8B 0A 43 02 83 ...
T3DDC 001:225.673   CPU_WriteMem(668 bytes @ 0x20000164)
T3DDC 001:234.437 - 8.926ms returns 0x29C
T3DDC 001:234.524 JLINK_WriteMem(0x20000400, 0x164 Bytes, ...)
T3DDC 001:234.556   Data:  29 46 20 46 FF F7 F0 FF 20 89 40 F0 07 00 20 81 ...
T3DDC 001:234.624   CPU_WriteMem(356 bytes @ 0x20000400)
T3DDC 001:239.686 - 5.225ms returns 0x164
